
**** 05/20/19 15:40:22 *********** Evaluation PSpice (Nov 1999) **************

 * C:\Users\david\Downloads\archivospract7\ej2\ej2pract7.sch


 ****     CIRCUIT DESCRIPTION


******************************************************************************




* Schematics Version 9.1 - Web Update 1
* Mon May 20 15:40:18 2019



** Analysis setup **
.tran 1us 1u
.OP 
.LIB "C:\Users\david\Downloads\archivospract7\ej2\ej2pract7.lib"
.STMLIB "ej2pract7.stl"


* From [PSPICE NETLIST] section of pspiceev.ini:
.lib "nom.lib"

.INC "ej2pract7.net"

**** INCLUDING ej2pract7.net ****
* Schematics Netlist *

.EXTERNAL INPUT B
.EXTERNAL INPUT C
.EXTERNAL INPUT A
.EXTERNAL INPUT F


** AutoGenerated Stimuli from Hierarchical ports **
U_AUTO_STM_0    STIM( 1, 0 ) $G_DPWR $G_DGND A IO_STM STIMULUS=A
U_AUTO_STM_1    STIM( 1, 0 ) $G_DPWR $G_DGND F IO_STM STIMULUS=F
U_AUTO_STM_2    STIM( 1, 0 ) $G_DPWR $G_DGND B IO_STM STIMULUS=B
U_AUTO_STM_3    STIM( 1, 0 ) $G_DPWR $G_DGND C IO_STM STIMULUS=C


V_VDD         $N_0001 0 5V
M_M1         $N_0002 B 0 0 MbreakN-X  
+ L=1u  
+ W=1u         
M_M3         $N_0002 C 0 0 MbreakN-X1  
+ L=1u  
+ W=1u         
M_M7         F A $N_0002 0 MbreakN-X2  
+ L=1u  
+ W=1u         
M_M4         $N_0001 A F $N_0001 MbreakP-X  
+ L=1u  
+ W=1u         
M_M5         $N_0003 B F $N_0001 MbreakP-X1  
+ L=1u  
+ W=1u         
M_M6         $N_0001 C $N_0003 $N_0001 MbreakP-X2  
+ L=1u  
+ W=1u         

**** RESUMING ej2pract7.cir ****
.INC "ej2pract7.als"



**** INCLUDING ej2pract7.als ****
* Schematics Aliases *

.ALIASES
V_VDD           VDD(+=$N_0001 -=0 )
M_M1            M1(d=$N_0002 g=B s=0 b=0 )
M_M3            M3(d=$N_0002 g=C s=0 b=0 )
M_M7            M7(d=F g=A s=$N_0002 b=0 )
M_M4            M4(d=$N_0001 g=A s=F b=$N_0001 )
M_M5            M5(d=$N_0003 g=B s=F b=$N_0001 )
M_M6            M6(d=$N_0001 g=C s=$N_0003 b=$N_0001 )
_    _(F=F)
_    _(A=A)
_    _(B=B)
_    _(C=C)
.ENDALIASES


**** RESUMING ej2pract7.cir ****
.probe


.END

Unable to find index file ej2pract7.ind for library file ej2pract7.lib
Making new index file ej2pract7.ind for library file ej2pract7.lib
Index has 6 entries from 1 file(s).


WARNING -- Library file "C:\Program Files\OrCAD_Demo\Capture\Library\PSpice\nom.lib" has changed since index file nom.ind was created.
WARNING -- The timestamp changed from Mon Apr 20 09:36:36 1998 to Mon Apr 20 10:36:36 1998.
Making new index file nom.ind for library file nom.lib
Index has 374 entries from 3 file(s).


**** Generated AtoD and DtoA Interfaces ****

*
* Analog/Digital interface for node B
*
* Moving U_AUTO_STM_2:OUT1 from analog node B to new digital node B$DtoA
X$B_DtoA1
+ B$DtoA
+ B
+ $G_DPWR
+ $G_DGND
+ DtoA_STM
+       PARAMS: DRVH=   0      DRVL=   0      CAPACITANCE=   0     
*
* Analog/Digital interface for node C
*
* Moving U_AUTO_STM_3:OUT1 from analog node C to new digital node C$DtoA
X$C_DtoA1
+ C$DtoA
+ C
+ $G_DPWR
+ $G_DGND
+ DtoA_STM
+       PARAMS: DRVH=   0      DRVL=   0      CAPACITANCE=   0     
*
* Analog/Digital interface for node F
*
* Moving U_AUTO_STM_1:OUT1 from analog node F to new digital node F$DtoA
X$F_DtoA1
+ F$DtoA
+ F
+ $G_DPWR
+ $G_DGND
+ DtoA_STM
+       PARAMS: DRVH=   0      DRVL=   0      CAPACITANCE=   0     
*
* Analog/Digital interface for node A
*
* Moving U_AUTO_STM_0:OUT1 from analog node A to new digital node A$DtoA
X$A_DtoA1
+ A$DtoA
+ A
+ $G_DPWR
+ $G_DGND
+ DtoA_STM
+       PARAMS: DRVH=   0      DRVL=   0      CAPACITANCE=   0     
*
* Analog/Digital interface power supply subcircuits
*

X$DIGIFPWR 0 DIGIFPWR

* C:\Users\david\Downloads\archivospract7\ej2\ej2pract7.stl written on Mon May 20 15:39:31 2019
* by Stimulus Editor -- Evaluation Version 9.1
;!Stimulus Get
;! A Digital B Digital C Digital
;!Ok
;!Plot Axis_Settings
;!Xrange 0s 4us
;!AutoUniverse
;!XminRes 1ns
;!YminRes 1n
;!Ok
.STIMULUS C STIM (1, 1) ;! CLOCK 1MHz 0.5 0 0
+   +0s 0
+   +500ns 1
+   Repeat Forever
+      +500ns 0
+      +500ns 1
+   EndRepeat
.STIMULUS B STIM (1, 1) ;! CLOCK 2MHz 0.5 0 0
+   +0s 0
+   +250ns 1
+   Repeat Forever
+      +250ns 0
+      +250ns 1
+   EndRepeat
.STIMULUS A STIM (1, 1) ;! CLOCK 4MHz 0.5 0 0
+   +0s 0
+   +125ns 1
+   Repeat Forever
+      +125ns 0
+      +125ns 1
+   EndRepeat
.STIMULUS C STIM (1, 1)
+   +0s Z
.STIMULUS B STIM (1, 1)
+   +0s Z
.STIMULUS F STIM (1, 1)
+   +0s Z
.STIMULUS A STIM (1, 1)
+   +0s Z
.STIMULUS A STIM (1, 1) ;! CLOCK 4MHz 0.5 0 0
+   +0s 0
+   +125ns 1
+   Repeat Forever
+      +125ns 0
+      +125ns 1
+   EndRepeat
.STIMULUS F STIM (1, 1)
+   +0s Z
.STIMULUS B STIM (1, 1) ;! CLOCK 2MHz 0.5 0 0
+   +0s 0
+   +250ns 1
+   Repeat Forever
+      +250ns 0
+      +250ns 1
+   EndRepeat

**** 05/20/19 15:40:22 *********** Evaluation PSpice (Nov 1999) **************

 * C:\Users\david\Downloads\archivospract7\ej2\ej2pract7.sch


 ****     MOSFET MODEL PARAMETERS


******************************************************************************




               MbreakN-X       MbreakN-X1      MbreakN-X2      MbreakP-X       
               NMOS            NMOS            NMOS            PMOS            
       LEVEL    1               1               1               1            
           L  100.000000E-06  100.000000E-06  100.000000E-06  100.000000E-06 
           W  100.000000E-06  100.000000E-06  100.000000E-06  100.000000E-06 
         VTO    1               1               1              -1            
          KP   15.000000E-06   15.000000E-06   15.000000E-06   15.000000E-06 
       GAMMA    0               0               0               0            
         PHI     .6              .6              .6              .6          
      LAMBDA    0               0               0               0            
          IS   10.000000E-15   10.000000E-15   10.000000E-15   10.000000E-15 
          JS    0               0               0               0            
          PB     .8              .8              .8              .8          
        PBSW     .8              .8              .8              .8          
          CJ    0               0               0               0            
        CJSW    0               0               0               0            
        CGSO    0               0               0               0            
        CGDO    0               0               0               0            
        CGBO    0               0               0               0            
         TOX    0               0               0               0            
          XJ    0               0               0               0            
       UCRIT   10.000000E+03   10.000000E+03   10.000000E+03   10.000000E+03 
      DIOMOD    1               1               1               1            
         VFB    0               0               0               0            
        LETA    0               0               0               0            
        WETA    0               0               0               0            
          U0    0               0               0               0            
        TEMP    0               0               0               0            
         VDD    0               0               0               0            
       XPART    0               0               0               0            


               MbreakP-X1      MbreakP-X2      
               PMOS            PMOS            
       LEVEL    1               1            
           L  100.000000E-06  100.000000E-06 
           W  100.000000E-06  100.000000E-06 
         VTO   -1              -1            
          KP   15.000000E-06   15.000000E-06 
       GAMMA    0               0            
         PHI     .6              .6          
      LAMBDA    0               0            
          IS   10.000000E-15   10.000000E-15 
          JS    0               0            
          PB     .8              .8          
        PBSW     .8              .8          
          CJ    0               0            
        CJSW    0               0            
        CGSO    0               0            
        CGDO    0               0            
        CGBO    0               0            
         TOX    0               0            
          XJ    0               0            
       UCRIT   10.000000E+03   10.000000E+03 
      DIOMOD    1               1            
         VFB    0               0            
        LETA    0               0            
        WETA    0               0            
          U0    0               0            
        TEMP    0               0            
         VDD    0               0            
       XPART    0               0            


**** 05/20/19 15:40:22 *********** Evaluation PSpice (Nov 1999) **************

 * C:\Users\david\Downloads\archivospract7\ej2\ej2pract7.sch


 ****     Digital Input MODEL PARAMETERS


******************************************************************************




               DINSTM          
        FILE DSO_DTOA        
      FORMAT    6            
    TIMESTEP  100.000000E-12 
      S0NAME 0               
       S0TSW  500.000000E-12 
       S0RLO     .5          
       S0RHI    1.000000E+03 
      S1NAME 1               
       S1TSW  500.000000E-12 
       S1RLO    1.000000E+03 
       S1RHI     .5          
      S2NAME X               
       S2TSW  500.000000E-12 
       S2RLO     .429        
       S2RHI    1.16         
      S3NAME R               
       S3TSW  500.000000E-12 
       S3RLO     .429        
       S3RHI    1.16         
      S4NAME F               
       S4TSW  500.000000E-12 
       S4RLO     .429        
       S4RHI    1.16         
      S5NAME Z               
       S5TSW  500.000000E-12 
       S5RLO    1.000000E+06 
       S5RHI    1.000000E+06 


**** 05/20/19 15:40:22 *********** Evaluation PSpice (Nov 1999) **************

 * C:\Users\david\Downloads\archivospract7\ej2\ej2pract7.sch


 ****     Digital IO  MODEL PARAMETERS


******************************************************************************




               IO_STM          
        DRVL    0            
        DRVH    0            
       DtoA1 DtoA_STM        
       DtoA2 DtoA_STM        
       DtoA3 DtoA_STM        
       DtoA4 DtoA_STM        
       TPWRT  100.000000E+03 


**** 05/20/19 15:40:22 *********** Evaluation PSpice (Nov 1999) **************

 * C:\Users\david\Downloads\archivospract7\ej2\ej2pract7.sch


 ****     SMALL SIGNAL BIAS SOLUTION       TEMPERATURE =   27.000 DEG C


******************************************************************************



 NODE   VOLTAGE     NODE   VOLTAGE     NODE   VOLTAGE     NODE   VOLTAGE


(    A)     .0025  (    B)     .0025  (    C)     .0025  (    F)    4.9453      

($G_DGND)    0.0000                   ($G_DPWR)    5.0000                       

($N_0001)    5.0000                   ($N_0002)-394.4E-15                       

($N_0003)    4.9727                   



 DGTL NODE : STATE  DGTL NODE : STATE  DGTL NODE : STATE  DGTL NODE : STATE


(  A$DtoA) : 0     (  B$DtoA) : 0     (  F$DtoA) : Z     (  C$DtoA) : 0     




    VOLTAGE SOURCE CURRENTS
    NAME         CURRENT

    V_VDD       -4.891E-06
    X$DIGIFPWR.VDPWR  -1.500E-02
    X$DIGIFPWR.VDGND  -1.095E-07

    TOTAL POWER DISSIPATION   7.50E-02  WATTS


**** 05/20/19 15:40:22 *********** Evaluation PSpice (Nov 1999) **************

 * C:\Users\david\Downloads\archivospract7\ej2\ej2pract7.sch


 ****     OPERATING POINT INFORMATION      TEMPERATURE =   27.000 DEG C


******************************************************************************






**** MOSFETS


NAME         M_M1        M_M3        M_M7        M_M4        M_M5      
MODEL        MbreakN-X   MbreakN-X1  MbreakN-X2  MbreakP-X   MbreakP-X1
ID          -5.47E-25   -5.47E-25    4.96E-12    3.26E-06    1.63E-06 
VGS          2.50E-03    2.50E-03    2.50E-03   -4.94E+00   -4.94E+00 
VDS         -3.94E-13   -3.94E-13    4.95E+00    5.47E-02    2.75E-02 
VBS          0.00E+00    0.00E+00    3.94E-13    5.47E-02    5.47E-02 
VTH          1.00E+00    1.00E+00    1.00E+00   -1.00E+00   -1.00E+00 
VDSAT        0.00E+00    0.00E+00    0.00E+00   -4.00E+00   -3.97E+00 
Lin0/Sat1   -1.00E+00   -1.00E+00   -1.00E+00   -1.00E+00   -1.00E+00 
if          -1.00E+00   -1.00E+00   -1.00E+00   -1.00E+00   -1.00E+00 
ir          -1.00E+00   -1.00E+00   -1.00E+00   -1.00E+00   -1.00E+00 
TAU         -1.00E+00   -1.00E+00   -1.00E+00   -1.00E+00   -1.00E+00 
GM           0.00E+00    0.00E+00    0.00E+00    8.21E-07    4.12E-07 
GDS          0.00E+00    0.00E+00    0.00E+00    5.91E-05    5.91E-05 
GMB          0.00E+00    0.00E+00    0.00E+00    0.00E+00    0.00E+00 
CBD          0.00E+00    0.00E+00    0.00E+00    0.00E+00    0.00E+00 
CBS          0.00E+00    0.00E+00    0.00E+00    0.00E+00    0.00E+00 
CGSOV        0.00E+00    0.00E+00    0.00E+00    0.00E+00    0.00E+00 
CGDOV        0.00E+00    0.00E+00    0.00E+00    0.00E+00    0.00E+00 
CGBOV        0.00E+00    0.00E+00    0.00E+00    0.00E+00    0.00E+00 
CGS          0.00E+00    0.00E+00    0.00E+00    0.00E+00    0.00E+00 
CGD          0.00E+00    0.00E+00    0.00E+00    0.00E+00    0.00E+00 
CGB          0.00E+00    0.00E+00    0.00E+00    0.00E+00    0.00E+00 

NAME         M_M6      
MODEL        MbreakP-X2
ID           1.63E-06 
VGS         -4.97E+00 
VDS          2.73E-02 
VBS          2.73E-02 
VTH         -1.00E+00 
VDSAT       -4.00E+00 
Lin0/Sat1   -1.00E+00 
if          -1.00E+00 
ir          -1.00E+00 
TAU         -1.00E+00 
GM           4.09E-07 
GDS          5.96E-05 
GMB          0.00E+00 
CBD          0.00E+00 
CBS          0.00E+00 
CGSOV        0.00E+00 
CGDOV        0.00E+00 
CGBOV        0.00E+00 
CGS          0.00E+00 
CGD          0.00E+00 
CGB          0.00E+00 
**** 05/20/19 15:40:22 *********** Evaluation PSpice (Nov 1999) **************

 * C:\Users\david\Downloads\archivospract7\ej2\ej2pract7.sch


 ****     INITIAL TRANSIENT SOLUTION       TEMPERATURE =   27.000 DEG C


******************************************************************************



 NODE   VOLTAGE     NODE   VOLTAGE     NODE   VOLTAGE     NODE   VOLTAGE


(    A)     .0025  (    B)     .0025  (    C)     .0025  (    F)    4.9453      

($G_DGND)    0.0000                   ($G_DPWR)    5.0000                       

($N_0001)    5.0000                   ($N_0002)-394.4E-15                       

($N_0003)    4.9727                   



 DGTL NODE : STATE  DGTL NODE : STATE  DGTL NODE : STATE  DGTL NODE : STATE


(  A$DtoA) : 0     (  B$DtoA) : 0     (  F$DtoA) : Z     (  C$DtoA) : 0     




    VOLTAGE SOURCE CURRENTS
    NAME         CURRENT

    V_VDD       -4.891E-06
    X$DIGIFPWR.VDPWR  -1.500E-02
    X$DIGIFPWR.VDGND  -1.095E-07

    TOTAL POWER DISSIPATION   7.50E-02  WATTS



          JOB CONCLUDED

          TOTAL JOB TIME             .28
